Circuit: * C:\Users\psiit\OneDrive\Documents\ee17btech11031.asc

Direct Newton iteration for .op point succeeded.
Semiconductor Device Operating Points:
                        --- Bipolar Transistors ---
Name:       q1
Model:      npn
Ib:       2.19e-05
Ic:       2.19e-03
Vbe:      7.95e-01
Vbc:     -1.76e+00
Vce:      2.55e+00
BetaDC:   1.00e+02
Gm:       8.47e-02
Rpi:      1.18e+03
Rx:       0.00e+00
Ro:       8.10e+43
Cbe:      0.00e+00
Cbc:      0.00e+00
Cjs:      0.00e+00
BetaAC:   1.00e+02
Cbx:      0.00e+00
Ft:       0.00e+00



Date: Tue May 19 21:26:14 2020
Total elapsed time: 0.202 seconds.

tnom = 27
temp = 27
method = trap
totiter = 7
traniter = 0
tranpoints = 0
accept = 0
rejected = 0
matrix size = 6
fillins = 0
solver = Normal
Matrix Compiler1: 146 bytes object code size
Matrix Compiler2: 380 bytes object code size
